! Validation Capstone Generated Data
! Freq: 10MHz - 20GHz, 10 inch trace, 0.6pF Via Cap
# Hz S RI R 85.0
10000000 -0.00017 -0.00159 0.99385 -0.10775 0.99385 -0.10775 -0.00017 -0.00159
20000000 -0.00069 -0.00313 0.97623 -0.21420 0.97623 -0.21420 -0.00069 -0.00313
30000000 -0.00153 -0.00455 0.94727 -0.31812 0.94727 -0.31812 -0.00153 -0.00455
40000000 -0.00268 -0.00581 0.90729 -0.41829 0.90729 -0.41829 -0.00268 -0.00581
50000000 -0.00411 -0.00686 0.85676 -0.51355 0.85676 -0.51355 -0.00411 -0.00686
60000000 -0.00579 -0.00765 0.79627 -0.60280 0.79627 -0.60280 -0.00579 -0.00765
70000000 -0.00768 -0.00815 0.72652 -0.68499 0.72652 -0.68499 -0.00768 -0.00815
80000000 -0.00973 -0.00831 0.64834 -0.75917 0.64834 -0.75917 -0.00973 -0.00831
90000000 -0.01189 -0.00811 0.56263 -0.82448 0.56263 -0.82448 -0.01189 -0.00811
100000000 -0.01410 -0.00754 0.47039 -0.88015 0.47039 -0.88015 -0.01410 -0.00754
110000000 -0.01631 -0.00657 0.37272 -0.92556 0.37272 -0.92556 -0.01631 -0.00657
120000000 -0.01846 -0.00521 0.27073 -0.96016 0.27073 -0.96016 -0.01846 -0.00521
130000000 -0.02049 -0.00345 0.16563 -0.98356 0.16563 -0.98356 -0.02049 -0.00345
140000000 -0.02233 -0.00132 0.05864 -0.99550 0.05864 -0.99550 -0.02233 -0.00132
150000000 -0.02393 0.00118 -0.04900 -0.99583 -0.04900 -0.99583 -0.02393 0.00118
160000000 -0.02524 0.00400 -0.15602 -0.98456 -0.15602 -0.98456 -0.02524 0.00400
170000000 -0.02620 0.00711 -0.26118 -0.96182 -0.26118 -0.96182 -0.02620 0.00711
180000000 -0.02676 0.01048 -0.36326 -0.92788 -0.36326 -0.92788 -0.02676 0.01048
190000000 -0.02688 0.01404 -0.46106 -0.88315 -0.46106 -0.88315 -0.02688 0.01404
200000000 -0.02654 0.01774 -0.55346 -0.82814 -0.55346 -0.82814 -0.02654 0.01774
210000000 -0.02569 0.02151 -0.63937 -0.76351 -0.63937 -0.76351 -0.02569 0.02151
220000000 -0.02432 0.02530 -0.71779 -0.69000 -0.71779 -0.69000 -0.02432 0.02530
230000000 -0.02242 0.02903 -0.78782 -0.60849 -0.78782 -0.60849 -0.02242 0.02903
240000000 -0.01999 0.03263 -0.84864 -0.51992 -0.84864 -0.51992 -0.01999 0.03263
250000000 -0.01704 0.03603 -0.89954 -0.42533 -0.89954 -0.42533 -0.01704 0.03603
260000000 -0.01357 0.03916 -0.93995 -0.32583 -0.93995 -0.32583 -0.01357 0.03916
270000000 -0.00963 0.04194 -0.96938 -0.22257 -0.96938 -0.22257 -0.00963 0.04194
280000000 -0.00524 0.04430 -0.98751 -0.11676 -0.98751 -0.11676 -0.00524 0.04430
290000000 -0.00045 0.04619 -0.99413 -0.00964 -0.99413 -0.00964 -0.00045 0.04619
300000000 0.00469 0.04755 -0.98916 0.09754 -0.98916 0.09754 0.00469 0.04755
310000000 0.01011 0.04831 -0.97266 0.20354 -0.97266 0.20354 0.01011 0.04831
320000000 0.01575 0.04844 -0.94485 0.30713 -0.94485 0.30713 0.01575 0.04844
330000000 0.02152 0.04790 -0.90603 0.40708 -0.90603 0.40708 0.02152 0.04790
340000000 0.02736 0.04667 -0.85668 0.50225 -0.85668 0.50225 0.02736 0.04667
350000000 0.03317 0.04471 -0.79737 0.59152 -0.79737 0.59152 0.03317 0.04471
360000000 0.03887 0.04204 -0.72880 0.67386 -0.72880 0.67386 0.03887 0.04204
370000000 0.04436 0.03864 -0.65177 0.74831 -0.65177 0.74831 0.04436 0.03864
380000000 0.04956 0.03453 -0.56718 0.81400 -0.56718 0.81400 0.04956 0.03453
390000000 0.05437 0.02975 -0.47603 0.87018 -0.47603 0.87018 0.05437 0.02975
400000000 0.05872 0.02431 -0.37937 0.91620 -0.37937 0.91620 0.05872 0.02431
410000000 0.06251 0.01828 -0.27834 0.95152 -0.27834 0.95152 0.06251 0.01828
420000000 0.06566 0.01172 -0.17412 0.97573 -0.17412 0.97573 0.06566 0.01172
430000000 0.06811 0.00468 -0.06793 0.98857 -0.06793 0.98857 0.06811 0.00468
440000000 0.06978 -0.00275 0.03901 0.98988 0.03901 0.98988 0.06978 -0.00275
450000000 0.07063 -0.01049 0.14543 0.97966 0.14543 0.97966 0.07063 -0.01049
460000000 0.07061 -0.01843 0.25010 0.95803 0.25010 0.95803 0.07061 -0.01843
470000000 0.06968 -0.02649 0.35181 0.92525 0.35181 0.92525 0.06968 -0.02649
480000000 0.06781 -0.03456 0.44937 0.88171 0.44937 0.88171 0.06781 -0.03456
490000000 0.06500 -0.04252 0.54163 0.82792 0.54163 0.82792 0.06500 -0.04252
500000000 0.06125 -0.05027 0.62754 0.76452 0.62754 0.76452 0.06125 -0.05027
510000000 0.05657 -0.05770 0.70609 0.69225 0.70609 0.69225 0.05657 -0.05770
520000000 0.05098 -0.06468 0.77638 0.61195 0.77638 0.61195 0.05098 -0.06468
530000000 0.04454 -0.07112 0.83758 0.52456 0.83758 0.52456 0.04454 -0.07112
540000000 0.03730 -0.07691 0.88899 0.43112 0.88899 0.43112 0.03730 -0.07691
550000000 0.02932 -0.08195 0.93002 0.33270 0.93002 0.33270 0.02932 -0.08195
560000000 0.02068 -0.08615 0.96018 0.23047 0.96018 0.23047 0.02068 -0.08615
570000000 0.01147 -0.08942 0.97915 0.12560 0.97915 0.12560 0.01147 -0.08942
580000000 0.00180 -0.09169 0.98670 0.01934 0.98670 0.01934 0.00180 -0.09169
590000000 -0.00823 -0.09290 0.98276 -0.08709 0.98276 -0.08709 -0.00823 -0.09290
600000000 -0.01850 -0.09300 0.96736 -0.19244 0.96736 -0.19244 -0.01850 -0.09300
610000000 -0.02888 -0.09194 0.94071 -0.29549 0.94071 -0.29549 -0.02888 -0.09194
620000000 -0.03924 -0.08971 0.90312 -0.39503 0.90312 -0.39503 -0.03924 -0.08971
630000000 -0.04945 -0.08631 0.85503 -0.48992 0.85503 -0.48992 -0.04945 -0.08631
640000000 -0.05938 -0.08173 0.79701 -0.57904 0.79701 -0.57904 -0.05938 -0.08173
650000000 -0.06888 -0.07600 0.72975 -0.66136 0.72975 -0.66136 -0.06888 -0.07600
660000000 -0.07782 -0.06916 0.65402 -0.73593 0.65402 -0.73593 -0.07782 -0.06916
670000000 -0.08608 -0.06127 0.57073 -0.80188 0.57073 -0.80188 -0.08608 -0.06127
680000000 -0.09353 -0.05239 0.48083 -0.85845 0.48083 -0.85845 -0.09353 -0.05239
690000000 -0.10005 -0.04261 0.38540 -0.90498 0.38540 -0.90498 -0.10005 -0.04261
700000000 -0.10553 -0.03202 0.28554 -0.94095 0.28554 -0.94095 -0.10553 -0.03202
710000000 -0.10988 -0.02075 0.18241 -0.96594 0.18241 -0.96594 -0.10988 -0.02075
720000000 -0.11301 -0.00891 0.07723 -0.97965 0.07723 -0.97965 -0.11301 -0.00891
730000000 -0.11485 0.00337 -0.02879 -0.98196 -0.02879 -0.98196 -0.11485 0.00337
740000000 -0.11534 0.01593 -0.13440 -0.97282 -0.13440 -0.97282 -0.11534 0.01593
750000000 -0.11444 0.02864 -0.23837 -0.95236 -0.23837 -0.95236 -0.11444 0.02864
760000000 -0.11213 0.04134 -0.33950 -0.92082 -0.33950 -0.92082 -0.11213 0.04134
770000000 -0.10839 0.05386 -0.43661 -0.87858 -0.43661 -0.87858 -0.10839 0.05386
780000000 -0.10324 0.06606 -0.52857 -0.82614 -0.52857 -0.82614 -0.10324 0.06606
790000000 -0.09672 0.07776 -0.61431 -0.76411 -0.61431 -0.76411 -0.09672 0.07776
800000000 -0.08886 0.08881 -0.69284 -0.69322 -0.69284 -0.69322 -0.08886 0.08881
810000000 -0.07973 0.09905 -0.76325 -0.61432 -0.76325 -0.61432 -0.07973 0.09905
820000000 -0.06941 0.10835 -0.82472 -0.52831 -0.82472 -0.52831 -0.06941 0.10835
830000000 -0.05801 0.11657 -0.87655 -0.43621 -0.87655 -0.43621 -0.05801 0.11657
840000000 -0.04564 0.12357 -0.91813 -0.33909 -0.91813 -0.33909 -0.04564 0.12357
850000000 -0.03243 0.12924 -0.94899 -0.23810 -0.94899 -0.23810 -0.03243 0.12924
860000000 -0.01852 0.13349 -0.96878 -0.13440 -0.96878 -0.13440 -0.01852 0.13349
870000000 -0.00407 0.13622 -0.97727 -0.02922 -0.97727 -0.02922 -0.00407 0.13622
880000000 0.01075 0.13738 -0.97438 0.07623 -0.97438 0.07623 0.01075 0.13738
890000000 0.02577 0.13691 -0.96015 0.18072 -0.96015 0.18072 0.02577 0.13691
900000000 0.04081 0.13479 -0.93474 0.28302 -0.93474 0.28302 0.04081 0.13479
910000000 0.05569 0.13100 -0.89848 0.38196 -0.89848 0.38196 0.05569 0.13100
920000000 0.07022 0.12555 -0.85177 0.47638 -0.85177 0.47638 0.07022 0.12555
930000000 0.08421 0.11849 -0.79519 0.56517 -0.79519 0.56517 0.08421 0.11849
940000000 0.09749 0.10985 -0.72939 0.64733 -0.72939 0.64733 0.09749 0.10985
950000000 0.10988 0.09972 -0.65515 0.72188 -0.65515 0.72188 0.10988 0.09972
960000000 0.12120 0.08819 -0.57333 0.78797 -0.57333 0.78797 0.12120 0.08819
970000000 0.13130 0.07536 -0.48491 0.84484 -0.48491 0.84484 0.13130 0.07536
980000000 0.14003 0.06138 -0.39090 0.89183 -0.39090 0.89183 0.14003 0.06138
990000000 0.14726 0.04638 -0.29242 0.92840 -0.29242 0.92840 0.14726 0.04638
1000000000 0.15287 0.03054 -0.19061 0.95414 -0.19061 0.95414 0.15287 0.03054
1010000000 0.15677 0.01402 -0.08666 0.96874 -0.08666 0.96874 0.15677 0.01402
1020000000 0.15886 -0.00298 0.01822 0.97206 0.01822 0.97206 0.15886 -0.00298
1030000000 0.15910 -0.02026 0.12280 0.96406 0.12280 0.96406 0.15910 -0.02026
1040000000 0.15744 -0.03764 0.22587 0.94484 0.22587 0.94484 0.15744 -0.03764
1050000000 0.15387 -0.05488 0.32622 0.91464 0.32622 0.91464 0.15387 -0.05488
1060000000 0.14841 -0.07179 0.42270 0.87382 0.42270 0.87382 0.14841 -0.07179
1070000000 0.14107 -0.08815 0.51418 0.82286 0.51418 0.82286 0.14107 -0.08815
1080000000 0.13192 -0.10375 0.59960 0.76236 0.59960 0.76236 0.13192 -0.10375
1090000000 0.12103 -0.11840 0.67797 0.69304 0.67797 0.69304 0.12103 -0.11840
1100000000 0.10851 -0.13190 0.74839 0.61571 0.74839 0.61571 0.10851 -0.13190
1110000000 0.09449 -0.14406 0.81004 0.53128 0.81004 0.53128 0.09449 -0.14406
1120000000 0.07909 -0.15472 0.86220 0.44073 0.86220 0.44073 0.07909 -0.15472
1130000000 0.06249 -0.16372 0.90429 0.34513 0.90429 0.34513 0.06249 -0.16372
1140000000 0.04486 -0.17093 0.93582 0.24559 0.93582 0.24559 0.04486 -0.17093
1150000000 0.02640 -0.17623 0.95643 0.14328 0.95643 0.14328 0.02640 -0.17623
1160000000 0.00732 -0.17952 0.96589 0.03939 0.96589 0.03939 0.00732 -0.17952
1170000000 -0.01216 -0.18073 0.96410 -0.06487 0.96410 -0.06487 -0.01216 -0.18073
1180000000 -0.03182 -0.17982 0.95110 -0.16829 0.95110 -0.16829 -0.03182 -0.17982
1190000000 -0.05141 -0.17675 0.92703 -0.26965 0.92703 -0.26965 -0.05141 -0.17675
1200000000 -0.07071 -0.17154 0.89220 -0.36780 0.89220 -0.36780 -0.07071 -0.17154
1210000000 -0.08948 -0.16421 0.84702 -0.46157 0.84702 -0.46157 -0.08948 -0.16421
1220000000 -0.10749 -0.15482 0.79202 -0.54989 0.79202 -0.54989 -0.10749 -0.15482
1230000000 -0.12450 -0.14344 0.72785 -0.63174 0.72785 -0.63174 -0.12450 -0.14344
1240000000 -0.14030 -0.13018 0.65527 -0.70616 0.65527 -0.70616 -0.14030 -0.13018
1250000000 -0.15467 -0.11518 0.57513 -0.77230 0.57513 -0.77230 -0.15467 -0.11518
1260000000 -0.16744 -0.09859 0.48837 -0.82939 0.48837 -0.82939 -0.16744 -0.09859
1270000000 -0.17841 -0.08058 0.39600 -0.87678 0.39600 -0.87678 -0.17841 -0.08058
1280000000 -0.18743 -0.06134 0.29911 -0.91393 0.29911 -0.91393 -0.18743 -0.06134
1290000000 -0.19437 -0.04110 0.19883 -0.94040 0.19883 -0.94040 -0.19437 -0.04110
1300000000 -0.19911 -0.02006 0.09633 -0.95592 0.09633 -0.95592 -0.19911 -0.02006
1310000000 -0.20156 0.00151 -0.00720 -0.96029 -0.00720 -0.96029 -0.20156 0.00151
1320000000 -0.20166 0.02338 -0.11055 -0.95349 -0.11055 -0.95349 -0.20166 0.02338
1330000000 -0.19937 0.04529 -0.21252 -0.93560 -0.21252 -0.93560 -0.19937 0.04529
1340000000 -0.19470 0.06697 -0.31192 -0.90685 -0.31192 -0.90685 -0.19470 0.06697
1350000000 -0.18765 0.08816 -0.40760 -0.86757 -0.40760 -0.86757 -0.18765 0.08816
1360000000 -0.17829 0.10861 -0.49844 -0.81823 -0.49844 -0.81823 -0.17829 0.10861
1370000000 -0.16670 0.12806 -0.58341 -0.75942 -0.58341 -0.75942 -0.16670 0.12806
1380000000 -0.15297 0.14626 -0.66150 -0.69184 -0.66150 -0.69184 -0.15297 0.14626
1390000000 -0.13725 0.16298 -0.73182 -0.61627 -0.73182 -0.61627 -0.13725 0.16298
1400000000 -0.11969 0.17800 -0.79357 -0.53360 -0.79357 -0.53360 -0.11969 0.17800
1410000000 -0.10049 0.19113 -0.84602 -0.44481 -0.84602 -0.44481 -0.10049 0.19113
1420000000 -0.07984 0.20216 -0.88858 -0.35093 -0.88858 -0.35093 -0.07984 0.20216
1430000000 -0.05798 0.21096 -0.92076 -0.25306 -0.92076 -0.25306 -0.05798 0.21096
1440000000 -0.03515 0.21738 -0.94221 -0.15234 -0.94221 -0.15234 -0.03515 0.21738
1450000000 -0.01160 0.22132 -0.95267 -0.04994 -0.95267 -0.04994 -0.01160 0.22132
1460000000 0.01238 0.22270 -0.95204 0.05293 -0.95204 0.05293 0.01238 0.22270
1470000000 0.03653 0.22147 -0.94034 0.15508 -0.94034 0.15508 0.03653 0.22147
1480000000 0.06055 0.21761 -0.91771 0.25533 -0.91771 0.25533 0.06055 0.21761
1490000000 0.08416 0.21114 -0.88444 0.35251 -0.88444 0.35251 0.08416 0.21114
1500000000 0.10707 0.20210 -0.84091 0.44549 -0.84091 0.44549 0.10707 0.20210
1510000000 0.12900 0.19056 -0.78764 0.53320 -0.78764 0.53320 0.12900 0.19056
1520000000 0.14968 0.17663 -0.72527 0.61462 -0.72527 0.61462 0.14968 0.17663
1530000000 0.16885 0.16045 -0.65453 0.68881 -0.65453 0.68881 0.16885 0.16045
1540000000 0.18627 0.14218 -0.57625 0.75491 -0.57625 0.75491 0.18627 0.14218
1550000000 0.20170 0.12202 -0.49134 0.81216 -0.49134 0.81216 0.20170 0.12202
1560000000 0.21493 0.10018 -0.40082 0.85992 -0.40082 0.85992 0.21493 0.10018
1570000000 0.22579 0.07690 -0.30572 0.89762 -0.30572 0.89762 0.22579 0.07690
1580000000 0.23412 0.05244 -0.20717 0.92485 -0.20717 0.92485 0.23412 0.05244
1590000000 0.23980 0.02708 -0.10631 0.94129 -0.10631 0.94129 0.23980 0.02708
1600000000 0.24271 0.00111 -0.00432 0.94677 -0.00432 0.94677 0.24271 0.00111
1610000000 0.24280 -0.02518 0.09761 0.94124 0.09761 0.94124 0.24280 -0.02518
1620000000 0.24003 -0.05147 0.19830 0.92477 0.19830 0.92477 0.24003 -0.05147
1630000000 0.23441 -0.07745 0.29657 0.89757 0.29657 0.89757 0.23441 -0.07745
1640000000 0.22597 -0.10282 0.39130 0.85996 0.39130 0.85996 0.22597 -0.10282
1650000000 0.21477 -0.12726 0.48137 0.81239 0.48137 0.81239 0.21477 -0.12726
1660000000 0.20092 -0.15047 0.56575 0.75543 0.56575 0.75543 0.20092 -0.15047
1670000000 0.18456 -0.17217 0.64347 0.68975 0.64347 0.68975 0.18456 -0.17217
1680000000 0.16584 -0.19208 0.71361 0.61612 0.71361 0.61612 0.16584 -0.19208
1690000000 0.14497 -0.20996 0.77539 0.53541 0.77539 0.53541 0.14497 -0.20996
1700000000 0.12218 -0.22555 0.82809 0.44856 0.82809 0.44856 0.12218 -0.22555
1710000000 0.09770 -0.23866 0.87110 0.35659 0.87110 0.35659 0.09770 -0.23866
1720000000 0.07181 -0.24911 0.90394 0.26058 0.90394 0.26058 0.07181 -0.24911
1730000000 0.04481 -0.25674 0.92624 0.16165 0.92624 0.16165 0.04481 -0.25674
1740000000 0.01699 -0.26143 0.93774 0.06094 0.93774 0.06094 0.01699 -0.26143
1750000000 -0.01132 -0.26310 0.93834 -0.04036 0.93834 -0.04036 -0.01132 -0.26310
1760000000 -0.03978 -0.26169 0.92802 -0.14108 0.92802 -0.14108 -0.03978 -0.26169
1770000000 -0.06807 -0.25720 0.90694 -0.24004 0.90694 -0.24004 -0.06807 -0.25720
1780000000 -0.09586 -0.24964 0.87533 -0.33611 0.87533 -0.33611 -0.09586 -0.24964
1790000000 -0.12280 -0.23907 0.83359 -0.42816 0.83359 -0.42816 -0.12280 -0.23907
1800000000 -0.14856 -0.22559 0.78221 -0.51513 0.78221 -0.51513 -0.14856 -0.22559
1810000000 -0.17285 -0.20932 0.72179 -0.59602 0.72179 -0.59602 -0.17285 -0.20932
1820000000 -0.19534 -0.19043 0.65306 -0.66989 0.65306 -0.66989 -0.19534 -0.19043
1830000000 -0.21577 -0.16913 0.57682 -0.73589 0.57682 -0.73589 -0.21577 -0.16913
1840000000 -0.23386 -0.14562 0.49396 -0.79326 0.49396 -0.79326 -0.23386 -0.14562
1850000000 -0.24938 -0.12018 0.40545 -0.84135 0.40545 -0.84135 -0.24938 -0.12018
1860000000 -0.26213 -0.09308 0.31234 -0.87961 0.31234 -0.87961 -0.26213 -0.09308
1870000000 -0.27193 -0.06463 0.21570 -0.90760 0.21570 -0.90760 -0.27193 -0.06463
1880000000 -0.27863 -0.03514 0.11667 -0.92501 0.11667 -0.92501 -0.27863 -0.03514
1890000000 -0.28212 -0.00497 0.01640 -0.93166 0.01640 -0.93166 -0.28212 -0.00497
1900000000 -0.28234 0.02555 -0.08394 -0.92747 -0.08394 -0.92747 -0.28234 0.02555
1910000000 -0.27925 0.05606 -0.18319 -0.91252 -0.18319 -0.91252 -0.27925 0.05606
1920000000 -0.27286 0.08619 -0.28019 -0.88698 -0.28019 -0.88698 -0.27286 0.08619
1930000000 -0.26320 0.11560 -0.37383 -0.85116 -0.37383 -0.85116 -0.26320 0.11560
1940000000 -0.25037 0.14392 -0.46301 -0.80550 -0.46301 -0.80550 -0.25037 0.14392
1950000000 -0.23449 0.17081 -0.54671 -0.75054 -0.54671 -0.75054 -0.23449 0.17081
1960000000 -0.21572 0.19594 -0.62395 -0.68692 -0.62395 -0.68692 -0.21572 0.19594
1970000000 -0.19424 0.21901 -0.69386 -0.61540 -0.69386 -0.61540 -0.19424 0.21901
1980000000 -0.17030 0.23971 -0.75562 -0.53681 -0.75562 -0.53681 -0.17030 0.23971
1990000000 -0.14414 0.25779 -0.80853 -0.45209 -0.80853 -0.45209 -0.14414 0.25779
2000000000 -0.11607 0.27301 -0.85199 -0.36221 -0.85199 -0.36221 -0.11607 0.27301
2010000000 -0.08639 0.28517 -0.88549 -0.26824 -0.88549 -0.26824 -0.08639 0.28517
2020000000 -0.05543 0.29409 -0.90867 -0.17127 -0.90867 -0.17127 -0.05543 0.29409
2030000000 -0.02356 0.29964 -0.92127 -0.07242 -0.92127 -0.07242 -0.02356 0.29964
2040000000 0.00887 0.30173 -0.92315 0.02714 -0.92315 0.02714 0.00887 0.30173
2050000000 0.04147 0.30031 -0.91431 0.12627 -0.91431 0.12627 0.04147 0.30031
2060000000 0.07387 0.29536 -0.89487 0.22381 -0.89487 0.22381 0.07387 0.29536
2070000000 0.10568 0.28690 -0.86505 0.31863 -0.86505 0.31863 0.10568 0.28690
2080000000 0.13651 0.27501 -0.82522 0.40963 -0.82522 0.40963 0.13651 0.27501
2090000000 0.16601 0.25981 -0.77587 0.49576 -0.77587 0.49576 0.16601 0.25981
2100000000 0.19381 0.24143 -0.71756 0.57603 -0.71756 0.57603 0.19381 0.24143
2110000000 0.21958 0.22008 -0.65099 0.64951 -0.65099 0.64951 0.21958 0.22008
2120000000 0.24298 0.19597 -0.57695 0.71536 -0.57695 0.71536 0.24298 0.19597
2130000000 0.26374 0.16937 -0.49630 0.77281 -0.49630 0.77281 0.26374 0.16937
2140000000 0.28158 0.14058 -0.40999 0.82122 -0.40999 0.82122 0.28158 0.14058
2150000000 0.29626 0.10990 -0.31903 0.86004 -0.31903 0.86004 0.29626 0.10990
2160000000 0.30760 0.07769 -0.22448 0.88882 -0.22448 0.88882 0.30760 0.07769
2170000000 0.31543 0.04431 -0.12745 0.90724 -0.12745 0.90724 0.31543 0.04431
2180000000 0.31963 0.01015 -0.02906 0.91511 -0.02906 0.91511 0.31963 0.01015
2190000000 0.32013 -0.02440 0.06955 0.91235 0.06955 0.91235 0.32013 -0.02440
2200000000 0.31688 -0.05894 0.16722 0.89899 0.16722 0.89899 0.31688 -0.05894
2210000000 0.30991 -0.09306 0.26282 0.87522 0.26282 0.87522 0.30991 -0.09306
2220000000 0.29925 -0.12636 0.35525 0.84132 0.35525 0.84132 0.29925 -0.12636
2230000000 0.28501 -0.15844 0.44343 0.79769 0.44343 0.79769 0.28501 -0.15844
2240000000 0.26733 -0.18891 0.52636 0.74487 0.52636 0.74487 0.26733 -0.18891
2250000000 0.24639 -0.21740 0.60307 0.68346 0.60307 0.68346 0.24639 -0.21740
2260000000 0.22240 -0.24357 0.67267 0.61421 0.67267 0.61421 0.22240 -0.24357
2270000000 0.19564 -0.26710 0.73438 0.53791 0.73438 0.53791 0.19564 -0.26710
2280000000 0.16639 -0.28767 0.78749 0.45547 0.78749 0.45547 0.16639 -0.28767
2290000000 0.13497 -0.30504 0.83138 0.36785 0.83138 0.36785 0.13497 -0.30504
2300000000 0.10174 -0.31897 0.86557 0.27608 0.86557 0.27608 0.10174 -0.31897
2310000000 0.06708 -0.32928 0.88967 0.18123 0.88967 0.18123 0.06708 -0.32928
2320000000 0.03137 -0.33581 0.90341 0.08440 0.90341 0.08440 0.03137 -0.33581
2330000000 -0.00496 -0.33847 0.90665 -0.01328 0.90665 -0.01328 -0.00496 -0.33847
2340000000 -0.04150 -0.33719 0.89936 -0.11068 0.89936 -0.11068 -0.04150 -0.33719
2350000000 -0.07781 -0.33196 0.88165 -0.20667 0.88165 -0.20667 -0.07781 -0.33196
2360000000 -0.11348 -0.32282 0.85373 -0.30012 0.85373 -0.30012 -0.11348 -0.32282
2370000000 -0.14808 -0.30983 0.81595 -0.38997 0.81595 -0.38997 -0.14808 -0.30983
2380000000 -0.18120 -0.29314 0.76874 -0.47518 0.76874 -0.47518 -0.18120 -0.29314
2390000000 -0.21243 -0.27291 0.71268 -0.55475 0.71268 -0.55475 -0.21243 -0.27291
2400000000 -0.24140 -0.24934 0.64843 -0.62779 0.64843 -0.62779 -0.24140 -0.24934
2410000000 -0.26776 -0.22270 0.57674 -0.69344 0.57674 -0.69344 -0.26776 -0.22270
2420000000 -0.29117 -0.19327 0.49846 -0.75095 0.49846 -0.75095 -0.29117 -0.19327
2430000000 -0.31135 -0.16138 0.41450 -0.79968 0.41450 -0.79968 -0.31135 -0.16138
2440000000 -0.32802 -0.12739 0.32585 -0.83906 0.32585 -0.83906 -0.32802 -0.12739
2450000000 -0.34098 -0.09167 0.23353 -0.86866 0.23353 -0.86866 -0.34098 -0.09167
2460000000 -0.35005 -0.05464 0.13864 -0.88814 0.13864 -0.88814 -0.35005 -0.05464
2470000000 -0.35510 -0.01673 0.04227 -0.89728 0.04227 -0.89728 -0.35510 -0.01673
2480000000 -0.35603 0.02164 -0.05446 -0.89601 -0.05446 -0.89601 -0.35603 0.02164
2490000000 -0.35281 0.06001 -0.15043 -0.88435 -0.15043 -0.88435 -0.35281 0.06001
2500000000 -0.34546 0.09794 -0.24451 -0.86245 -0.24451 -0.86245 -0.34546 0.09794
2510000000 -0.33402 0.13498 -0.33564 -0.83057 -0.33564 -0.83057 -0.33402 0.13498
2520000000 -0.31861 0.17068 -0.42274 -0.78910 -0.42274 -0.78910 -0.31861 0.17068
