!**************************************************************************************
!* Samtec Inc. NovaRay Examax Flyover System                                          *
!**************************************************************************************
!*  REV DATE   = 08/08/18                                                             *
!*  TYPE       = TOUCHSTONE                                                           *
!*  PORTS      = 4 port                                                               *
!*  UNITS      = GHz                                                                  *
!*  DATA RANGE = DC  to 50 GHz; 10 MHz Step                                           *
!*  PARAMETER  = S                                                                    *
!*  FORMAT     = Real-Imaginary                                                       *
!*  REFERENCE  = 50 ohms                                                              *
!*  SOURCE     = HFSS                                                                 *
!*  VALIDATED  = No                                                                   *
!**************************************************************************************
!**************************************************************************************
!*  MANUFACTURER = SAMTEC                                                             *
!*  INTERCONNECT = NVAx to EBCx to EBCx to NVAx                                       *
!*        [Full Channel NVAx to EBCx to EBCx to NVAx  with PCB Trace and BGA Via]     *
!*  BOUNDARY A   = Silicon BGA Ball Pad                                               *
!*  BOUNDARY B   = Silicon BGA Ball Pad                                               *
!*                                                                                    *
!*      NVAx (end a) ->>- (end b) NVAx                                                *
!*      ------------      ------------                                                *
!*           Port 01 ->>- Port 02                                                     *
!*           Port 03 ->>- Port 04                                                     *
!*                                                                                    *
!**************************************************************************************
!***************************** CHANNEL MODEL ******************************************
# GHz S RI R 50
0	0.0046535104	2.3841018e-20	0.99520444	4.2056068e-24	0.00037408694	5.1004292e-21	-0.00027037118	3.311092e-20
	0.99520444	4.2056068e-24	0.0046535104	2.3841018e-20	-0.00027037118	3.311092e-20	0.00037408694	5.1004292e-21
	0.00037392402	5.1418138e-21	-0.00027254461	3.3377088e-20	0.004661521	2.2105723e-20	0.99517833	3.6047618e-24
	-0.00027254461	3.3377088e-20	0.00037392402	5.1418138e-21	0.99517833	3.6047618e-24	0.004661521	2.2105723e-20
0.01	0.077306222	0.030417806	0.76084655	-0.56393857	0.044698255	0.054083862	-0.0090206109	0.00053535473
	0.76084655	-0.56393857	0.077306221	0.030417806	-0.0090206109	0.00053535473	0.044698255	0.054083862
	0.044698239	0.054083836	-0.0090206091	0.00053532128	0.077346439	0.030449525	0.76082312	-0.56394322
	-0.0090206091	0.00053532128	0.044698239	0.054083836	0.76082312	-0.56394322	0.077346437	0.030449525
0.02	0.10211037	-0.0090842261	0.29780169	-0.87649277	0.10965504	0.034754464	-0.0052830856	0.0091759613
	0.29780169	-0.87649277	0.10211037	-0.0090842266	-0.0052830856	0.0091759613	0.10965504	0.034754464
	0.10965472	0.034753174	-0.005281771	0.0091744965	0.10217232	-0.009071626	0.29776766	-0.87648992
	-0.005281771	0.0091744965	0.10965472	0.034753174	0.29776766	-0.87648992	0.10217232	-0.0090716265
0.03	0.081218934	-0.044400212	-0.24435274	-0.8789675	0.12261871	-0.033101499	0.0029878826	0.0073711747
	-0.24435274	-0.8789675	0.081218933	-0.044400212	0.0029878826	0.0073711747	0.12261871	-0.033101499
	0.12261862	-0.033101426	0.002987755	0.0073710599	0.081238413	-0.044401933	-0.24439771	-0.87894722
	0.002987755	0.0073710599	0.12261862	-0.033101426	-0.24439771	-0.87894722	0.081238412	-0.044401933
0.04	0.047129117	-0.044166151	-0.69117529	-0.58365126	0.070668229	-0.076184059	0.0023560466	0.0022044576
	-0.69117529	-0.58365126	0.047129118	-0.04416615	0.0023560466	0.0022044576	0.070668229	-0.076184059
	0.070668135	-0.076184124	0.002356159	0.0022043746	0.047092789	-0.044101692	-0.69121842	-0.58359444
	0.002356159	0.0022043746	0.070668134	-0.076184124	-0.69121842	-0.58359444	0.04709279	-0.044101691
0.05	0.036197264	-0.019525256	-0.89414784	-0.089653123	0.013318818	-0.050924074	0.00017069017	0.0047818252
	-0.89414784	-0.089653123	0.036197264	-0.019525254	0.00017069017	0.0047818252	0.013318818	-0.050924074
	0.013318797	-0.050924034	0.00017068079	0.0047817822	0.036198801	-0.019334509	-0.8941513	-0.089559068
	0.00017068079	0.0047817822	0.013318797	-0.050924033	-0.8941513	-0.089559068	0.036198801	-0.019334507
0.06	0.054129202	-0.0045431842	-0.78012656	0.42916897	0.014960454	0.0072004284	0.0059166743	0.0073213804
	-0.78012656	0.42916897	0.054129206	-0.0045431845	0.0059166743	0.0073213804	0.014960454	0.0072004295
	0.014960432	0.0072004054	0.0059167053	0.0073214016	0.054286635	-0.0042988749	-0.78006332	0.42926012
	0.0059167053	0.0073214016	0.014960432	0.0072004066	-0.78006332	0.42926012	0.054286639	-0.0042988752
0.07	0.074863074	-0.016281032	-0.39618185	0.78501925	0.069932501	0.026057882	0.011799503	0.0012818875
	-0.39618185	0.78501925	0.074863075	-0.016281033	0.011799503	0.0012818875	0.069932502	0.026057882
	0.06993247	0.026057908	0.011799545	0.0012818729	0.075163821	-0.016141379	-0.39606863	0.78506157
	0.011799545	0.0012818729	0.06993247	0.026057908	-0.39606863	0.78506157	0.075163822	-0.01614138
0.08	0.076539967	-0.04008004	0.11108424	0.86106796	0.11265859	-0.018750764	0.0099793744	-0.0068299781
	0.11108424	0.86106796	0.076539967	-0.040080041	0.0099793744	-0.0068299781	0.11265859	-0.018750764
	0.11265859	-0.018750759	0.0099793778	-0.0068299829	0.07682513	-0.040111608	0.11121146	0.86104328
	0.0099793778	-0.0068299829	0.1126586	-0.01875076	0.11121146	0.86104328	0.07682513	-0.040111609
0.09	0.062327248	-0.055611085	0.56752445	0.64636083	0.094417081	-0.081159562	0.0044992037	-0.010492887
	0.56752445	0.64636083	0.062327249	-0.055611084	0.0044992037	-0.010492887	0.094417081	-0.081159562
	0.094417057	-0.081159558	0.0044992171	-0.010492864	0.062456884	-0.055694609	0.56763282	0.64626673
	0.0044992171	-0.010492864	0.094417056	-0.081159557	0.56763282	0.64626673	0.062456884	-0.055694609
0.1	0.046501118	-0.057702586	0.82764116	0.21809655	0.032950349	-0.099122777	-0.00049660939	-0.011489485
	0.82764116	0.21809655	0.046501119	-0.057702587	-0.00049660939	-0.011489485	0.032950349	-0.099122776
	0.032950346	-0.099122773	-0.00049660531	-0.01148948	0.046523341	-0.057645353	0.82769126	0.21794072
	-0.00049660531	-0.01148948	0.032950346	-0.099122773	0.82769126	0.21794072	0.046523342	-0.057645353
0.11	0.037633872	-0.052867158	0.8049098	-0.28303335	-0.010242194	-0.059727983	-0.0061813425	-0.011323431
	0.8049098	-0.28303335	0.037633872	-0.052867158	-0.0061813425	-0.011323431	-0.010242194	-0.059727983
	-0.010242192	-0.059727979	-0.0061813384	-0.01132343	0.037714765	-0.052619016	0.8048628	-0.28321239
	-0.0061813384	-0.01132343	-0.010242192	-0.059727979	0.8048628	-0.28321239	0.037714766	-0.052619015
0.12	0.035363771	-0.048599482	0.50308153	-0.68397152	0.003621961	-0.010808338	-0.012779306	-0.0077810858
	0.50308153	-0.68397152	0.035363769	-0.04859948	-0.012779306	-0.0077810858	0.0036219596	-0.010808338
	0.0036219636	-0.010808339	-0.012779304	-0.0077810875	0.035668095	-0.048289351	0.50292669	-0.68410779
	-0.012779304	-0.0077810875	0.0036219622	-0.01080834	0.50292669	-0.68410779	0.035668092	-0.048289349
0.13	0.036393145	-0.047366789	0.030375438	-0.84175126	0.049396345	-0.00672561	-0.017150137	0.00040194645
	0.030375438	-0.84175126	0.036393145	-0.047366793	-0.017150137	0.00040194645	0.049396347	-0.0067256099
	0.049396345	-0.0067256117	-0.017150137	0.00040194495	0.036891939	-0.047232433	0.03015153	-0.84177727
	-0.017150137	0.00040194495	0.049396347	-0.0067256117	0.03015153	-0.84177727	0.036891939	-0.047232437
0.14	0.038850585	-0.050245567	-0.4426743	-0.70742743	0.069823845	-0.048296878	-0.015653539	0.011267798
	-0.4426743	-0.70742743	0.038850586	-0.050245565	-0.015653539	0.011267798	0.069823844	-0.048296878
	0.069823844	-0.048296878	-0.01565354	0.011267798	0.039295869	-0.050376237	-0.44288633	-0.70731283
	-0.01565354	0.011267798	0.069823843	-0.048296878	-0.44288633	-0.70731283	0.03929587	-0.050376236
0.15	0.039143262	-0.058700347	-0.75642469	-0.33693492	0.040523693	-0.087345359	-0.0067107844	0.019932358
	-0.75642469	-0.33693492	0.039143262	-0.05870035	-0.0067107844	0.019932358	0.040523695	-0.08734536
	0.040523691	-0.087345357	-0.0067107848	0.019932358	0.039333882	-0.05889334	-0.75653857	-0.33671068
	-0.0067107848	0.019932358	0.040523693	-0.087345358	-0.75653857	-0.33671068	0.039333882	-0.058893344
0.16	0.031316252	-0.069730045	-0.8114866	0.14205817	-0.0083810326	-0.082940465	0.0064530792	0.021036652
	-0.8114866	0.14205817	0.031316255	-0.06973005	0.0064530792	0.021036652	-0.0083810312	-0.082940464
	-0.0083810325	-0.082940463	0.0064530793	0.021036652	0.031361814	-0.0696946	-0.81145815	0.14231447
	0.0064530793	0.021036652	-0.0083810311	-0.082940462	-0.81145815	0.14231447	0.031361818	-0.069694606
0.17	0.014449276	-0.07369507	-0.59071003	0.56969977	-0.029386207	-0.042757541	0.017313127	0.014079918
	-0.59071003	0.56969977	0.014449274	-0.07369507	0.017313127	0.014079918	-0.029386209	-0.04275754
	-0.029386207	-0.04275754	0.017313128	0.014079918	0.014689364	-0.073406122	-0.590547	0.56991165
	0.017313128	0.014079918	-0.029386209	-0.042757539	-0.590547	0.56991165	0.014689362	-0.073406122
0.18	-0.00088175961	-0.063447836	-0.16873392	0.79932438	-0.0086807855	-0.010297284	0.022661649	0.0031662054
	-0.16873392	0.79932438	-0.00088175783	-0.063447843	0.022661649	0.0031662054	-0.0086807803	-0.010297284
	-0.008680786	-0.010297285	0.022661649	0.003166205	-0.00026329577	-0.063227544	-0.16846505	0.79943164
	0.022661649	0.003166205	-0.0086807811	-0.010297285	-0.16846505	0.79943164	-0.00026329404	-0.063227552
0.19	-0.0012004445	-0.04659007	0.30673269	0.75194699	0.022654136	-0.015189175	0.022743426	-0.0095004378
	0.30673269	0.75194699	-0.0012004447	-0.046590072	0.022743426	-0.0095004378	0.022654138	-0.015189175
	0.022654137	-0.015189175	0.022743426	-0.0095004383	-0.000426807	-0.046765638	0.30705051	0.75188482
	0.022743426	-0.0095004383	0.022654139	-0.015189174	0.30705051	0.75188482	-0.00042680725	-0.04676564
0.2	0.012400089	-0.040445036	0.67081643	0.44849572	0.027295148	-0.043061564	0.015417011	-0.022554181
	0.67081643	0.44849572	0.012400089	-0.040445036	0.015417011	-0.022554181	0.027295148	-0.043061564
	0.027295149	-0.043061564	0.015417011	-0.022554182	0.012919093	-0.040956547	0.67106217	0.44823602
	0.015417011	-0.022554182	0.027295149	-0.043061564	0.67106217	0.44823602	0.012919093	-0.040956548
0.21	0.022924195	-0.052037308	0.80239062	-0.0031923287	0.0028455032	-0.056735636	-0.00052233856	-0.029683463
	0.80239062	-0.0031923287	0.022924191	-0.052037312	-0.00052233856	-0.029683463	0.0028455061	-0.056735639
	0.0028455035	-0.056735636	-0.00052233909	-0.029683464	0.023062474	-0.052473617	0.80243629	-0.0035680447
	-0.00052233909	-0.029683464	0.0028455064	-0.056735639	0.80243629	-0.0035680447	0.02306247	-0.052473621
0.22	0.016139119	-0.068847056	0.66021735	-0.44928613	-0.019571916	-0.039750119	-0.018523464	-0.0248331
	0.66021735	-0.44928613	0.016139118	-0.068847054	-0.018523464	-0.0248331	-0.019571917	-0.039750121
	-0.019571916	-0.039750119	-0.018523464	-0.024833099	0.016234087	-0.068907654	0.66003381	-0.44962684
	-0.018523464	-0.024833099	-0.019571917	-0.03975012	0.66003381	-0.44962684	0.016234085	-0.068907653
0.23	-0.0025615911	-0.072201136	0.29404778	-0.73842394	-0.013327906	-0.013214369	-0.029833669	-0.010370206
	0.29404778	-0.73842394	-0.002561595	-0.072201137	-0.029833669	-0.010370206	-0.013327903	-0.013214371
	-0.013327906	-0.01321437	-0.029833669	-0.010370206	-0.0020666047	-0.072080084	0.29369909	-0.73861366
	-0.029833669	-0.010370206	-0.013327903	-0.013214372	0.29369909	-0.73861366	-0.0020666085	-0.072080085
0.24	-0.013419481	-0.05963925	-0.16909619	-0.77218388	0.013111652	-0.0094038883	-0.031828239	0.0074927994
	-0.16909619	-0.77218388	-0.013419479	-0.059639253	-0.031828239	0.0074927994	0.013111655	-0.0094038855
	0.013111651	-0.0094038885	-0.031828239	0.0074927994	-0.012505439	-0.059858906	-0.16951656	-0.77215265
	-0.031828239	0.0074927994	0.013111654	-0.0094038857	-0.16951656	-0.77215265	-0.012505436	-0.059858908
0.25	-0.0067935956	-0.049002198	-0.56881154	-0.54199724	0.027103869	-0.033837203	-0.024287692	0.025150612
	-0.56881154	-0.54199724	-0.0067935908	-0.049002198	-0.024287692	0.025150612	0.027103866	-0.033837201
	0.027103869	-0.033837203	-0.024287692	0.025150612	-0.0059488601	-0.049835358	-0.56916455	-0.54171089
	-0.024287692	0.025150612	0.027103866	-0.033837201	-0.56916455	-0.54171089	-0.0059488554	-0.049835358
0.26	0.0038037533	-0.055736691	-0.76999505	-0.13073056	0.0097909142	-0.059298346	-0.0061200095	0.037111936
	-0.76999505	-0.13073056	0.0038037537	-0.05573669	-0.0061200095	0.037111936	0.0097909134	-0.059298345
	0.0097909143	-0.059298346	-0.0061200094	0.037111936	0.0040864884	-0.056863976	-0.77011296	-0.1302694
	-0.0061200094	0.037111936	0.0097909137	-0.059298345	-0.77011296	-0.1302694	0.0040864888	-0.056863975
0.27	-0.0010957272	-0.072545843	-0.70796764	0.31997525	-0.022313644	-0.056737649	0.017550883	0.035299449
	-0.70796764	0.31997525	-0.0010957255	-0.072545845	0.017550883	0.035299449	-0.022313645	-0.056737647
	-0.022313644	-0.056737649	0.017550884	0.035299448	-0.0013189557	-0.073364574	-0.70779216	0.32041673
	0.017550884	0.035299448	-0.022313645	-0.056737647	-0.70779216	0.32041673	-0.001318954	-0.073364576
0.28	-0.021659714	-0.078098265	-0.40643728	0.65799214	-0.035251876	-0.028386997	0.035246652	0.019132153
	-0.40643728	0.65799214	-0.021659711	-0.078098265	0.035246652	0.019132153	-0.035251877	-0.028386995
	-0.035251876	-0.028386997	0.035246652	0.019132153	-0.021812335	-0.078380728	-0.4060582	0.65826216
	0.035246652	0.019132153	-0.035251877	-0.028386995	-0.4060582	0.65826216	-0.021812332	-0.078380728
0.29	-0.037010371	-0.064345755	0.031175697	0.76937563	-0.015697445	-0.0065871468	0.040653638	-0.0033126476
	0.031175697	0.76937563	-0.037010373	-0.064345757	0.040653638	-0.0033126476	-0.015697445	-0.0065871467
	-0.015697444	-0.0065871466	0.040653638	-0.0033126477	-0.036616082	-0.064521045	0.031652991	0.76942054
	0.040653638	-0.0033126477	-0.015697445	-0.0065871464	0.031652991	0.76942054	-0.036616083	-0.064521047
0.3	-0.031484119	-0.049523924	0.45452599	0.61666378	0.01264038	-0.018935893	0.034305776	-0.025935984
	0.45452599	0.61666378	-0.031484123	-0.049523922	0.034305776	-0.025935984	0.012640379	-0.018935897
	0.01264038	-0.018935893	0.034305776	-0.025935984	-0.030719117	-0.050244122	0.455001	0.6164267
	0.034305776	-0.025935984	0.012640379	-0.018935897	0.455001	0.6164267	-0.03071912	-0.05024412
0.31	-0.018408412	-0.056304925	0.71719076	0.25436652	0.012314483	-0.056988932	0.014858685	-0.04429733
	0.71719076	0.25436652	-0.01840841	-0.056304926	0.014858685	-0.04429733	0.012314483	-0.056988931
	0.012314483	-0.056988932	0.014858685	-0.04429733	-0.017974669	-0.057727936	0.71745797	0.25384034
	0.014858685	-0.04429733	0.012314483	-0.056988931	0.71745797	0.25384034	-0.017974669	-0.057727937
0.32	-0.026197854	-0.079237309	0.73070979	-0.18858338	-0.027858192	-0.081535658	-0.015944539	-0.047390008
	0.73070979	-0.18858338	-0.026197853	-0.07923731	-0.015944539	-0.047390008	-0.02785819	-0.081535658
	-0.027858192	-0.081535658	-0.015944539	-0.047390008	-0.026593326	-0.080790495	0.73057723	-0.18918433
	-0.015944539	-0.047390008	-0.02785819	-0.081535658	0.73057723	-0.18918433	-0.026593325	-0.080790496
0.33	-0.060864166	-0.087308542	0.49759744	-0.55880429	-0.077588793	-0.062394218	-0.04260943	-0.027763608
	0.49759744	-0.55880429	-0.060864167	-0.087308544	-0.04260943	-0.027763608	-0.077588794	-0.062394219
	-0.077588793	-0.062394218	-0.04260943	-0.027763608	-0.061814844	-0.088264433	0.49713946	-0.55917772
	-0.04260943	-0.027763608	-0.077588794	-0.062394219	0.49713946	-0.55917772	-0.061814845	-0.088264436
0.34	-0.094697124	-0.060505584	0.10315109	-0.73628521	-0.094862102	-0.011112106	-0.048836596	0.0032161374
	0.10315109	-0.73628521	-0.094697132	-0.060505581	-0.048836596	0.0032161374	-0.094862105	-0.011112106
	-0.094862103	-0.011112106	-0.048836595	0.0032161373	-0.09543742	-0.060761952	0.10261087	-0.73633983
	-0.048836595	0.0032161373	-0.094862105	-0.011112106	0.10261087	-0.73633983	-0.095437428	-0.06076195
0.35	-0.094548941	-0.015583453	-0.32195284	-0.66790783	-0.067771461	0.030577498	-0.037041372	0.027551478
	-0.32195284	-0.66790783	-0.094548936	-0.015583456	-0.037041372	0.027551478	-0.067771459	0.030577501
	-0.067771461	0.030577498	-0.037041372	0.027551478	-0.094633217	-0.01575668	-0.32244488	-0.66770844
	-0.037041372	0.027551478	-0.067771459	0.030577501	-0.32244488	-0.66770844	-0.094633211	-0.015756683
0.36	-0.059562333	0.0064274121	-0.63971639	-0.37474334	-0.024957102	0.029847443	-0.018996508	0.042028269
	-0.63971639	-0.37474334	-0.059562331	0.006427415	-0.018996508	0.042028269	-0.024957104	0.029847443
	-0.024957102	0.029847443	-0.018996508	0.042028268	-0.05932495	0.0056490027	-0.64008462	-0.37428519
	-0.018996508	0.042028268	-0.024957104	0.029847443	-0.64008462	-0.37428519	-0.059324948	0.0056490056
0.37	-0.030301407	-0.015908782	-0.73863846	0.049345796	-0.011501999	-0.00689723	0.0053994229	0.050489845
	-0.73863846	0.049345796	-0.030301406	-0.015908783	0.0053994229	0.050489845	-0.011501998	-0.0068972282
	-0.011501999	-0.00689723	0.0053994229	0.050489845	-0.030536815	-0.017318005	-0.73867234	0.05001223
	0.0053994229	0.050489845	-0.011501998	-0.0068972284	-0.73867234	0.05001223	-0.030536814	-0.017318007
0.38	-0.046816092	-0.051592331	-0.57821865	0.45358931	-0.04617202	-0.034248152	0.038342972	0.042500936
	-0.57821865	0.45358931	-0.046816094	-0.051592329	0.038342972	0.042500936	-0.046172021	-0.034248154
	-0.04617202	-0.034248152	0.038342972	0.042500935	-0.047924788	-0.052904255	-0.57779478	0.45414554
	0.038342972	0.042500935	-0.046172021	-0.034248154	-0.57779478	0.45414554	-0.04792479	-0.052904254
0.39	-0.095606173	-0.048776506	-0.22225573	0.69062737	-0.09562941	-0.01231563	0.060287702	0.0084658769
	-0.22225573	0.69062737	-0.095606174	-0.048776502	0.060287702	0.0084658769	-0.095629411	-0.012315634
	-0.09562941	-0.01231563	0.060287702	0.0084658769	-0.097112023	-0.049297123	-0.2216172	0.69077794
	0.060287702	0.0084658768	-0.095629411	-0.012315634	-0.2216172	0.69077794	-0.097112024	-0.049297121
0.4	-0.12380908	0.0016520143	0.19470877	0.68924884	-0.10942305	0.047634782	0.050175403	-0.031953763
	0.19470877	0.68924884	-0.12380908	0.0016520165	0.050175403	-0.031953763	-0.10942305	0.047634783
	-0.10942305	0.047634782	0.050175403	-0.031953763	-0.12490256	0.0018274782	0.19524692	0.68905461
	0.050175403	-0.031953763	-0.10942305	0.047634783	0.19524692	0.68905461	-0.12490256	0.0018274805
0.41	-0.099627927	0.058597059	0.53760956	0.46577411	-0.072767711	0.099458647	0.018225412	-0.050717395
	0.53760956	0.46577411	-0.09962793	0.058597059	0.018225412	-0.050717395	-0.072767709	0.099458645
	-0.072767711	0.099458647	0.018225412	-0.050717395	-0.10000841	0.058754495	0.53799404	0.46540332
	0.018225412	-0.050717395	-0.072767709	0.099458645	0.53799404	0.46540332	-0.10000841	0.058754494
0.42	-0.041021154	0.074244376	0.70601746	0.093218196	-0.012842621	0.10712606	-0.0098748602	-0.046327625
	0.70601746	0.093218196	-0.041021155	0.074244378	-0.0098748602	-0.046327625	-0.012842621	0.10712606
	-0.012842621	0.10712606	-0.0098748602	-0.046327625	-0.04113911	0.073775092	0.70624358	0.092653408
	-0.0098748602	-0.046327625	-0.012842621	0.10712606	0.70624358	0.092653408	-0.041139113	0.073775093
